[2025-Nov-11 21:17:30] [debug] --------------------------------------------------------------------------------
[2025-Nov-11 21:17:30] [debug] nrfjprog --recover --clockspeed 100 -f NRF52 --log 
[2025-Nov-11 21:17:30] [debug] nrfjprog version 10.24.2 external
[2025-Nov-11 21:17:30] [debug] --------------------------------------------------------------------------------
[2025-Nov-11 21:17:30] [ info] Load library at /opt/nrf-command-line-tools/lib/libnrfjprogdll.so.
[2025-Nov-11 21:17:30] [ info] Library loaded, loading member functions.
[2025-Nov-11 21:17:30] [ info] Member functions succesfully loaded.
[2025-Nov-11 21:17:30] [debug] [ Client] - open
[2025-Nov-11 21:17:30] [debug] [ Client] - start
[2025-Nov-11 21:17:30] [ info] [ Client] - stdout: Jlinkarm nRF Worker ready. Handling sequence 3dffa048-b990-4815-96e2-9a3d40aaabdb.
[2025-Nov-11 21:17:30] [debug] [SeggerBackend] - Logger sink registered in Segger backend logger
[2025-Nov-11 21:17:30] [debug] [  JLink] - Logger sink registered in JLink logger
[2025-Nov-11 21:17:30] [debug] [  nRF52] - open
[2025-Nov-11 21:17:30] [debug] [  nRF52] - just_check_family
[2025-Nov-11 21:17:30] [debug] [SeggerBackend] - open_dll
[2025-Nov-11 21:17:30] [debug] [SeggerBackend] - No J-Link DLL path was provided. Attempting to auto detect.
[2025-Nov-11 21:17:30] [trace] [ Client] - Command open executed for 5 milliseconds with result 0
[2025-Nov-11 21:17:30] [debug] [ Client] - config
[2025-Nov-11 21:17:30] [trace] [ Client] - Command config executed for 1 milliseconds with result 0
[2025-Nov-11 21:17:30] [debug] [ Client] - enum_emu_snr
[2025-Nov-11 21:17:30] [ info] [SeggerBackend] - Load library at /opt/SEGGER/JLink/libjlinkarm.so.8.80.0.
[2025-Nov-11 21:17:30] [ info] [SeggerBackend] - Library loaded, loading member functions.
[2025-Nov-11 21:17:30] [ info] [SeggerBackend] - Member functions succesfully loaded.
[2025-Nov-11 21:17:30] [debug] [SeggerBackend] - Set batch mode
[2025-Nov-11 21:17:30] [debug] [SeggerBackend] - dll_version
[2025-Nov-11 21:17:30] [ info] [SeggerBackend] - Segger dll version 8.80.  loaded.
[2025-Nov-11 21:17:30] [trace] [ Worker] - Command open executed for 4 milliseconds with result 0
[2025-Nov-11 21:17:30] [debug] [  nRF52] - config
[2025-Nov-11 21:17:30] [debug] [SeggerBackend] - enum_emu_snr
[2025-Nov-11 21:17:30] [trace] [ Worker] - Command config executed for 1 milliseconds with result 0
[2025-Nov-11 21:17:30] [debug] [  nRF52] - enum_emu_con_info
[2025-Nov-11 21:17:30] [debug] [SeggerBackend] - is_connected_to_emu
[2025-Nov-11 21:17:30] [debug] [SeggerBackend] - enum_emu_con_info
[2025-Nov-11 21:17:30] [trace] [ Client] - Command enum_emu_con_info executed for 17 milliseconds with result 0
[2025-Nov-11 21:17:30] [debug] [ Client] - connect_to_emu_with_snr
[2025-Nov-11 21:17:30] [debug] [SeggerBackend] - is_connected_to_emu
[2025-Nov-11 21:17:30] [trace] [ Worker] - Command enum_emu_con_info executed for 17 milliseconds with result 0
[2025-Nov-11 21:17:30] [debug] [  nRF52] - connect_to_emu_with_snr
[2025-Nov-11 21:17:30] [debug] [SeggerBackend] - is_connected_to_emu
[2025-Nov-11 21:17:30] [debug] [SeggerBackend] - connect_to_emu_with_snr
[2025-Nov-11 21:17:30] [debug] [SeggerBackend] - is_connected_to_emu
[2025-Nov-11 21:17:30] [debug] [SeggerBackend] - ---just_enum_emu_snr
[2025-Nov-11 21:17:30] [debug] [SeggerBackend] - ---just_get_num_emus
[2025-Nov-11 21:17:30] [debug] [SeggerBackend] - ---just_connect_to_emu_with_snr
[2025-Nov-11 21:17:30] [debug] [SeggerBackend] - ---just_connect_to_emu_without_snr
[2025-Nov-11 21:17:30] [debug] [SeggerBackend] - Segger logging enabled.
[2025-Nov-11 21:17:30] [trace] [  JLink] - Firmware: J-Link EDU Mini V2 compiled Oct 15 2025 17:03:08
[2025-Nov-11 21:17:30] [trace] [  JLink] - Firmware: J-Link EDU Mini V2 compiled Oct 15 2025 17:03:08
[2025-Nov-11 21:17:30] [trace] [  JLink] - Hardware: V2.00
[2025-Nov-11 21:17:30] [trace] [  JLink] - S/N: 802006172
[2025-Nov-11 21:17:30] [trace] [  JLink] - OEM: SEGGER
[2025-Nov-11 21:17:30] [trace] [  JLink] - Feature(s): FlashBP, GDB
[2025-Nov-11 21:17:30] [trace] [  JLink] - Bootloader: 2024 Aug 29
[2025-Nov-11 21:17:30] [trace] [  JLink] - USB speed mode: Full speed (12 MBit/s)
[2025-Nov-11 21:17:30] [trace] [  JLink] - TELNET listener socket opened on port 19021
[2025-Nov-11 21:17:30] [trace] [  JLink] - WEBSRV WEBSRV_Init(): Starting webserver thread(s)
[2025-Nov-11 21:17:30] [trace] [  JLink] - WEBSRV Webserver running on local port 19080
[2025-Nov-11 21:17:30] [trace] [  JLink] - Looking for J-Link GUI Server exe at: /opt/SEGGER/JLink/JLinkGUIServerExe 
[2025-Nov-11 21:17:30] [trace] [  JLink] - Forking J-Link GUI Server: /opt/SEGGER/JLink/JLinkGUIServerExe 
[2025-Nov-11 21:17:30] [trace] [ Client] - Command connect_to_emu_with_snr executed for 110 milliseconds with result 0
[2025-Nov-11 21:17:30] [debug] [ Client] - read_connected_emu_snr
[2025-Nov-11 21:17:30] [trace] [ Client] - Command read_connected_emu_snr executed for 0 milliseconds with result 0
[2025-Nov-11 21:17:30] [debug] [ Client] - recover
[2025-Nov-11 21:17:30] [trace] [  JLink] - J-Link GUI Server info: "J-Link GUI server V8.80 " 
[2025-Nov-11 21:17:30] [trace] [  JLink] - - 42.242ms returns "O.K."  
[2025-Nov-11 21:17:30] [trace] [  JLink] - JLINK_HasError()  
[2025-Nov-11 21:17:30] [trace] [  JLink] - JLINK_Lock()  
[2025-Nov-11 21:17:30] [trace] [  JLink] - JLINK_ExecCommand("SetRestartOnClose = 0", ...).   
[2025-Nov-11 21:17:30] [trace] [  JLink] - - 0.003ms returns 0x01  
[2025-Nov-11 21:17:30] [trace] [  JLink] - JLINK_HasError()  
[2025-Nov-11 21:17:30] [trace] [  JLink] - JLINK_ExecCommand("DisableFlashDL", ...).   
[2025-Nov-11 21:17:30] [trace] [  JLink] - - 0.002ms returns 0x00  
[2025-Nov-11 21:17:30] [trace] [  JLink] - JLINK_HasError()  
[2025-Nov-11 21:17:30] [trace] [  JLink] - JLINK_ExecCommand("ExcludeFlashCacheRange 0x0-0xFFFFFFFF", ...).   
[2025-Nov-11 21:17:30] [trace] [  JLink] - - 0.002ms returns 0x00  
[2025-Nov-11 21:17:30] [trace] [  JLink] - JLINK_HasError()  
[2025-Nov-11 21:17:30] [trace] [  JLink] - JLINK_SetHookUnsecureDialog  
[2025-Nov-11 21:17:30] [trace] [  JLink] - JLINK_SetHookUnsecureDialog(...)
[2025-Nov-11 21:17:30] [trace] [  JLink] - - 0.005ms returns 0  
[2025-Nov-11 21:17:30] [trace] [  JLink] - JLINK_HasError()  
[2025-Nov-11 21:17:30] [trace] [  JLink] - JLINK_TIF_Select(JLINKARM_TIF_SWD)  
[2025-Nov-11 21:17:30] [trace] [  JLink] - - 0.551ms returns 0x00  
[2025-Nov-11 21:17:30] [trace] [  JLink] - JLINK_HasError()  
[2025-Nov-11 21:17:30] [trace] [  JLink] - JLINK_GetSpeedInfo()  
[2025-Nov-11 21:17:30] [trace] [  JLink] - 96000000 Hz / n, n >= 24
[2025-Nov-11 21:17:30] [trace] [  JLink] - - 0.004ms   
[2025-Nov-11 21:17:30] [trace] [  JLink] - JLINK_HasError()  
[2025-Nov-11 21:17:30] [debug] [SeggerBackend] - Connected emulator supports SWD speeds up to 4000kHz
[2025-Nov-11 21:17:30] [trace] [  JLink] - JLINK_SetSpeed(100)  
[2025-Nov-11 21:17:30] [trace] [  JLink] - - 0.034ms   
[2025-Nov-11 21:17:30] [trace] [  JLink] - JLINK_HasError()  
[2025-Nov-11 21:17:30] [trace] [  JLink] - JLINK_GetSpeed()  
[2025-Nov-11 21:17:30] [trace] [  JLink] - - 0.002ms returns 100  
[2025-Nov-11 21:17:30] [trace] [  JLink] - JLINK_HasError()  
[2025-Nov-11 21:17:30] [debug] [SeggerBackend] - SWD clock set to 100kHz
[2025-Nov-11 21:17:30] [trace] [  JLink] - JLINK_GetSN()  
[2025-Nov-11 21:17:30] [trace] [  JLink] - - 0.001ms returns 802006172  
[2025-Nov-11 21:17:30] [trace] [  JLink] - JLINK_HasError()  
[2025-Nov-11 21:17:30] [trace] [  JLink] - - 0.002ms   
[2025-Nov-11 21:17:30] [debug] [  nRF52] - read_device_family
[2025-Nov-11 21:17:30] [trace] [ Worker] - Command connect_to_emu_with_snr executed for 110 milliseconds with result 0
[2025-Nov-11 21:17:30] [debug] [  nRF52] - read_connected_emu_snr
[2025-Nov-11 21:17:30] [debug] [SeggerBackend] - is_connected_to_emu
[2025-Nov-11 21:17:30] [trace] [  JLink] - JLINK_IsOpen()  
[2025-Nov-11 21:17:30] [trace] [  JLink] - - 0.003ms returns 0x01  
[2025-Nov-11 21:17:30] [trace] [  JLink] - JLINK_HasError()  
[2025-Nov-11 21:17:30] [trace] [  JLink] - JLINK_Lock()  
[2025-Nov-11 21:17:30] [debug] [SeggerBackend] - read_connected_emu_snr
[2025-Nov-11 21:17:30] [trace] [  JLink] - - 0.002ms   
[2025-Nov-11 21:17:30] [trace] [ Worker] - Command read_connected_emu_snr executed for 0 milliseconds with result 0
[2025-Nov-11 21:17:30] [debug] [  nRF52] - recover
[2025-Nov-11 21:17:30] [debug] [SeggerBackend] - is_connected_to_emu
[2025-Nov-11 21:17:30] [trace] [  JLink] - JLINK_IsOpen()  
[2025-Nov-11 21:17:30] [trace] [  JLink] - - 0.001ms returns 0x01  
[2025-Nov-11 21:17:30] [trace] [  JLink] - JLINK_HasError()  
[2025-Nov-11 21:17:30] [trace] [  JLink] - JLINK_Lock()  
[2025-Nov-11 21:17:30] [debug] [SeggerBackend] - is_connected_to_emu
[2025-Nov-11 21:17:30] [debug] [  nRF52] - Just_recover
[2025-Nov-11 21:17:30] [debug] [  nRF52] - Just_is_ctrl_ap_available
[2025-Nov-11 21:17:30] [debug] [SeggerBackend] - read_access_port_register
[2025-Nov-11 21:17:30] [debug] [SeggerBackend] - ---just_read_access_port_register
[2025-Nov-11 21:17:30] [debug] [SeggerBackend] - coresight_configure
[2025-Nov-11 21:17:30] [trace] [  JLink] - JLINK_GetHWStatus(...)  
[2025-Nov-11 21:17:30] [trace] [  JLink] - - 0.163ms returns 0  
[2025-Nov-11 21:17:30] [trace] [  JLink] - JLINK_HasError()  
[2025-Nov-11 21:17:30] [trace] [  JLink] - JLINK_CORESIGHT_Configure()  
[2025-Nov-11 21:17:30] [trace] [  JLink] - - 7.962ms returns 0  
[2025-Nov-11 21:17:30] [trace] [  JLink] - JLINK_HasError()  
[2025-Nov-11 21:17:30] [debug] [SeggerBackend] - read_debug_port_idr
[2025-Nov-11 21:17:30] [debug] [SeggerBackend] - read_debug_port_register
[2025-Nov-11 21:17:30] [debug] [SeggerBackend] - ---just_read_debug_port_register
[2025-Nov-11 21:17:30] [debug] [SeggerBackend] - ---just_select_debug_port_register
[2025-Nov-11 21:17:30] [debug] [SeggerBackend] - Select AP 255, DP Bank 0, AP Bank 255
[2025-Nov-11 21:17:30] [trace] [  JLink] - JLINK_CORESIGHT_WriteAPDPReg(DP reg 0x02, 0x00000000)  
[2025-Nov-11 21:17:30] [trace] [  JLink] - - 0.751ms returns 0  
[2025-Nov-11 21:17:30] [trace] [  JLink] - JLINK_HasError()  
[2025-Nov-11 21:17:30] [trace] [  JLink] - JLINK_CORESIGHT_ReadAPDPReg(DP reg 0x00)  
[2025-Nov-11 21:17:30] [trace] [  JLink] - Value=0x2BA01477
[2025-Nov-11 21:17:30] [trace] [  JLink] - - 0.697ms returns 0  
[2025-Nov-11 21:17:30] [trace] [  JLink] - JLINK_HasError()  
[2025-Nov-11 21:17:30] [debug] [SeggerBackend] - ---just_is_debug_region_powered
[2025-Nov-11 21:17:30] [debug] [SeggerBackend] - ---just_read_debug_port_register
[2025-Nov-11 21:17:30] [debug] [SeggerBackend] - ---just_select_debug_port_register
[2025-Nov-11 21:17:30] [trace] [  JLink] - JLINK_CORESIGHT_ReadAPDPReg(DP reg 0x01)  
[2025-Nov-11 21:17:30] [trace] [  JLink] - Value=0xF0000000
[2025-Nov-11 21:17:30] [trace] [  JLink] - - 0.837ms returns 0  
[2025-Nov-11 21:17:30] [trace] [  JLink] - JLINK_HasError()  
[2025-Nov-11 21:17:30] [debug] [SeggerBackend] - ---just_select_access_port_register
[2025-Nov-11 21:17:30] [debug] [SeggerBackend] - Select AP 1, DP Bank 0, AP Bank 15
[2025-Nov-11 21:17:30] [trace] [  JLink] - JLINK_CORESIGHT_WriteAPDPReg(DP reg 0x02, 0x010000F0)  
[2025-Nov-11 21:17:30] [trace] [  JLink] - - 0.870ms returns 0  
[2025-Nov-11 21:17:30] [trace] [  JLink] - JLINK_HasError()  
[2025-Nov-11 21:17:30] [trace] [  JLink] - JLINK_CORESIGHT_ReadAPDPReg(AP reg 0x03)  
[2025-Nov-11 21:17:30] [trace] [  JLink] - Value=0x02880000
[2025-Nov-11 21:17:30] [trace] [  JLink] - - 1.153ms returns 0  
[2025-Nov-11 21:17:30] [trace] [  JLink] - JLINK_HasError()  
[2025-Nov-11 21:17:30] [debug] [SeggerBackend] - read_access_port_register
[2025-Nov-11 21:17:30] [debug] [SeggerBackend] - ---just_read_access_port_register
[2025-Nov-11 21:17:30] [debug] [SeggerBackend] - ---just_select_access_port_register
[2025-Nov-11 21:17:30] [trace] [  JLink] - JLINK_CORESIGHT_ReadAPDPReg(AP reg 0x03)  
[2025-Nov-11 21:17:30] [trace] [  JLink] - Value=0x02880000
[2025-Nov-11 21:17:30] [trace] [  JLink] - - 1.241ms returns 0  
[2025-Nov-11 21:17:30] [trace] [  JLink] - JLINK_HasError()  
[2025-Nov-11 21:17:30] [debug] [SeggerBackend] - read_access_port_register
[2025-Nov-11 21:17:30] [debug] [SeggerBackend] - ---just_read_access_port_register
[2025-Nov-11 21:17:30] [debug] [SeggerBackend] - ---just_select_access_port_register
[2025-Nov-11 21:17:30] [trace] [  JLink] - JLINK_CORESIGHT_ReadAPDPReg(AP reg 0x03)  
[2025-Nov-11 21:17:30] [trace] [  JLink] - Value=0x02880000
[2025-Nov-11 21:17:30] [trace] [  JLink] - - 1.295ms returns 0  
[2025-Nov-11 21:17:30] [trace] [  JLink] - JLINK_HasError()  
[2025-Nov-11 21:17:30] [debug] [SeggerBackend] - read_access_port_register
[2025-Nov-11 21:17:30] [debug] [SeggerBackend] - ---just_read_access_port_register
[2025-Nov-11 21:17:30] [debug] [SeggerBackend] - ---just_select_access_port_register
[2025-Nov-11 21:17:30] [trace] [  JLink] - JLINK_CORESIGHT_ReadAPDPReg(AP reg 0x03)  
[2025-Nov-11 21:17:30] [trace] [  JLink] - Value=0x02880000
[2025-Nov-11 21:17:30] [trace] [  JLink] - - 1.329ms returns 0  
[2025-Nov-11 21:17:30] [trace] [  JLink] - JLINK_HasError()  
[2025-Nov-11 21:17:30] [debug] [SeggerBackend] - write_access_port_register
[2025-Nov-11 21:17:30] [debug] [SeggerBackend] - ---just_write_access_port_register
[2025-Nov-11 21:17:30] [debug] [SeggerBackend] - ---just_select_access_port_register
[2025-Nov-11 21:17:30] [debug] [SeggerBackend] - Select AP 1, DP Bank 0, AP Bank 0
[2025-Nov-11 21:17:30] [trace] [  JLink] - JLINK_CORESIGHT_WriteAPDPReg(DP reg 0x02, 0x01000000)  
[2025-Nov-11 21:17:30] [trace] [  JLink] - - 0.828ms returns 0  
[2025-Nov-11 21:17:30] [trace] [  JLink] - JLINK_HasError()  
[2025-Nov-11 21:17:30] [trace] [  JLink] - JLINK_CORESIGHT_WriteAPDPReg(AP reg 0x01, 0x00000001)  
[2025-Nov-11 21:17:30] [trace] [  JLink] - - 0.658ms returns 0  
[2025-Nov-11 21:17:30] [trace] [  JLink] - JLINK_HasError()  
[2025-Nov-11 21:17:31] [debug] [SeggerBackend] - read_access_port_register
[2025-Nov-11 21:17:31] [debug] [SeggerBackend] - ---just_read_access_port_register
[2025-Nov-11 21:17:31] [debug] [SeggerBackend] - ---just_select_access_port_register
[2025-Nov-11 21:17:31] [trace] [  JLink] - JLINK_CORESIGHT_ReadAPDPReg(AP reg 0x02)  
[2025-Nov-11 21:17:31] [trace] [  JLink] - Value=0x00000000
[2025-Nov-11 21:17:31] [trace] [  JLink] - - 4.146ms returns 0  
[2025-Nov-11 21:17:31] [trace] [  JLink] - JLINK_HasError()  
[2025-Nov-11 21:17:31] [debug] [  nRF52] - Just_debug_reset
[2025-Nov-11 21:17:31] [debug] [  nRF52] - Just_is_ctrl_ap_available
[2025-Nov-11 21:17:31] [debug] [SeggerBackend] - read_access_port_register
[2025-Nov-11 21:17:31] [debug] [SeggerBackend] - ---just_read_access_port_register
[2025-Nov-11 21:17:31] [debug] [SeggerBackend] - ---just_select_access_port_register
[2025-Nov-11 21:17:31] [debug] [SeggerBackend] - Select AP 1, DP Bank 0, AP Bank 15
[2025-Nov-11 21:17:31] [trace] [  JLink] - JLINK_CORESIGHT_WriteAPDPReg(DP reg 0x02, 0x010000F0)  
[2025-Nov-11 21:17:31] [trace] [  JLink] - - 0.864ms returns 0  
[2025-Nov-11 21:17:31] [trace] [  JLink] - JLINK_HasError()  
[2025-Nov-11 21:17:31] [trace] [  JLink] - JLINK_CORESIGHT_ReadAPDPReg(AP reg 0x03)  
[2025-Nov-11 21:17:31] [trace] [  JLink] - Value=0x00000000
[2025-Nov-11 21:17:31] [trace] [  JLink] - - 1.367ms returns 0  
[2025-Nov-11 21:17:31] [trace] [  JLink] - JLINK_HasError()  
[2025-Nov-11 21:17:31] [debug] [SeggerBackend] - read_access_port_register
[2025-Nov-11 21:17:31] [debug] [SeggerBackend] - ---just_read_access_port_register
[2025-Nov-11 21:17:31] [debug] [SeggerBackend] - ---just_select_access_port_register
[2025-Nov-11 21:17:31] [trace] [  JLink] - JLINK_CORESIGHT_ReadAPDPReg(AP reg 0x03)  
[2025-Nov-11 21:17:31] [trace] [  JLink] - Value=0x00000000
[2025-Nov-11 21:17:31] [trace] [  JLink] - - 1.486ms returns 0  
[2025-Nov-11 21:17:31] [trace] [  JLink] - JLINK_HasError()  
[2025-Nov-11 21:17:31] [debug] [SeggerBackend] - read_access_port_register
[2025-Nov-11 21:17:31] [debug] [SeggerBackend] - ---just_read_access_port_register
[2025-Nov-11 21:17:31] [debug] [SeggerBackend] - ---just_select_access_port_register
[2025-Nov-11 21:17:31] [trace] [  JLink] - JLINK_CORESIGHT_ReadAPDPReg(AP reg 0x03)  
[2025-Nov-11 21:17:31] [trace] [  JLink] - Value=0x00000000
[2025-Nov-11 21:17:31] [trace] [  JLink] - - 1.282ms returns 0  
[2025-Nov-11 21:17:31] [trace] [  JLink] - JLINK_HasError()  
[2025-Nov-11 21:17:31] [debug] [SeggerBackend] - read_access_port_register
[2025-Nov-11 21:17:31] [debug] [SeggerBackend] - ---just_read_access_port_register
[2025-Nov-11 21:17:31] [debug] [SeggerBackend] - ---just_select_access_port_register
[2025-Nov-11 21:17:31] [trace] [  JLink] - JLINK_CORESIGHT_ReadAPDPReg(AP reg 0x03)  
[2025-Nov-11 21:17:31] [trace] [  JLink] - Value=0x00000000
[2025-Nov-11 21:17:31] [trace] [  JLink] - - 1.324ms returns 0  
[2025-Nov-11 21:17:31] [trace] [  JLink] - JLINK_HasError()  
[2025-Nov-11 21:17:31] [warning] [  nRF52] - Encountered error while recovering, retrying. -4: nRF52832 engineering A does not support debug reset.
[2025-Nov-11 21:17:31] [debug] [SeggerBackend] - write_access_port_register
[2025-Nov-11 21:17:31] [debug] [SeggerBackend] - ---just_write_access_port_register
[2025-Nov-11 21:17:31] [debug] [SeggerBackend] - ---just_select_access_port_register
[2025-Nov-11 21:17:31] [debug] [SeggerBackend] - Select AP 1, DP Bank 0, AP Bank 0
[2025-Nov-11 21:17:31] [trace] [  JLink] - JLINK_CORESIGHT_WriteAPDPReg(DP reg 0x02, 0x01000000)  
[2025-Nov-11 21:17:31] [trace] [  JLink] - - 0.964ms returns 0  
[2025-Nov-11 21:17:31] [trace] [  JLink] - JLINK_HasError()  
[2025-Nov-11 21:17:31] [trace] [  JLink] - JLINK_CORESIGHT_WriteAPDPReg(AP reg 0x01, 0x00000001)  
[2025-Nov-11 21:17:31] [trace] [  JLink] - - 0.902ms returns 0  
[2025-Nov-11 21:17:31] [trace] [  JLink] - JLINK_HasError()  
[2025-Nov-11 21:17:31] [debug] [SeggerBackend] - read_access_port_register
[2025-Nov-11 21:17:31] [debug] [SeggerBackend] - ---just_read_access_port_register
[2025-Nov-11 21:17:31] [debug] [SeggerBackend] - ---just_select_access_port_register
[2025-Nov-11 21:17:31] [trace] [  JLink] - JLINK_CORESIGHT_ReadAPDPReg(AP reg 0x02)  
[2025-Nov-11 21:17:31] [trace] [  JLink] - Value=0x00000000
[2025-Nov-11 21:17:31] [trace] [  JLink] - - 4.378ms returns 0  
[2025-Nov-11 21:17:31] [trace] [  JLink] - JLINK_HasError()  
[2025-Nov-11 21:17:31] [debug] [  nRF52] - Just_debug_reset
[2025-Nov-11 21:17:31] [debug] [  nRF52] - Just_is_ctrl_ap_available
[2025-Nov-11 21:17:31] [debug] [SeggerBackend] - read_access_port_register
[2025-Nov-11 21:17:31] [debug] [SeggerBackend] - ---just_read_access_port_register
[2025-Nov-11 21:17:31] [debug] [SeggerBackend] - ---just_select_access_port_register
[2025-Nov-11 21:17:31] [debug] [SeggerBackend] - Select AP 1, DP Bank 0, AP Bank 15
[2025-Nov-11 21:17:31] [trace] [  JLink] - JLINK_CORESIGHT_WriteAPDPReg(DP reg 0x02, 0x010000F0)  
[2025-Nov-11 21:17:31] [trace] [  JLink] - - 0.788ms returns 0  
[2025-Nov-11 21:17:31] [trace] [  JLink] - JLINK_HasError()  
[2025-Nov-11 21:17:31] [trace] [  JLink] - JLINK_CORESIGHT_ReadAPDPReg(AP reg 0x03)  
[2025-Nov-11 21:17:31] [trace] [  JLink] - Value=0x00000000
[2025-Nov-11 21:17:31] [trace] [  JLink] - - 1.509ms returns 0  
[2025-Nov-11 21:17:31] [trace] [  JLink] - JLINK_HasError()  
[2025-Nov-11 21:17:31] [debug] [SeggerBackend] - read_access_port_register
[2025-Nov-11 21:17:31] [debug] [SeggerBackend] - ---just_read_access_port_register
[2025-Nov-11 21:17:31] [debug] [SeggerBackend] - ---just_select_access_port_register
[2025-Nov-11 21:17:31] [trace] [  JLink] - JLINK_CORESIGHT_ReadAPDPReg(AP reg 0x03)  
[2025-Nov-11 21:17:31] [trace] [  JLink] - Value=0x00000000
[2025-Nov-11 21:17:31] [trace] [  JLink] - - 1.350ms returns 0  
[2025-Nov-11 21:17:31] [trace] [  JLink] - JLINK_HasError()  
[2025-Nov-11 21:17:31] [debug] [SeggerBackend] - read_access_port_register
[2025-Nov-11 21:17:31] [debug] [SeggerBackend] - ---just_read_access_port_register
[2025-Nov-11 21:17:31] [debug] [SeggerBackend] - ---just_select_access_port_register
[2025-Nov-11 21:17:31] [trace] [  JLink] - JLINK_CORESIGHT_ReadAPDPReg(AP reg 0x03)  
[2025-Nov-11 21:17:31] [trace] [  JLink] - Value=0x00000000
[2025-Nov-11 21:17:31] [trace] [  JLink] - - 1.405ms returns 0  
[2025-Nov-11 21:17:31] [trace] [  JLink] - JLINK_HasError()  
[2025-Nov-11 21:17:31] [debug] [SeggerBackend] - read_access_port_register
[2025-Nov-11 21:17:31] [debug] [SeggerBackend] - ---just_read_access_port_register
[2025-Nov-11 21:17:31] [debug] [SeggerBackend] - ---just_select_access_port_register
[2025-Nov-11 21:17:31] [trace] [  JLink] - JLINK_CORESIGHT_ReadAPDPReg(AP reg 0x03)  
[2025-Nov-11 21:17:31] [trace] [  JLink] - Value=0x00000000
[2025-Nov-11 21:17:31] [trace] [  JLink] - - 2.177ms returns 0  
[2025-Nov-11 21:17:31] [trace] [  JLink] - JLINK_HasError()  
[2025-Nov-11 21:17:31] [warning] [  nRF52] - Encountered error while recovering, retrying. -4: nRF52832 engineering A does not support debug reset.
[2025-Nov-11 21:17:31] [debug] [SeggerBackend] - write_access_port_register
[2025-Nov-11 21:17:31] [debug] [SeggerBackend] - ---just_write_access_port_register
[2025-Nov-11 21:17:31] [debug] [SeggerBackend] - ---just_select_access_port_register
[2025-Nov-11 21:17:31] [debug] [SeggerBackend] - Select AP 1, DP Bank 0, AP Bank 0
[2025-Nov-11 21:17:31] [trace] [  JLink] - JLINK_CORESIGHT_WriteAPDPReg(DP reg 0x02, 0x01000000)  
[2025-Nov-11 21:17:31] [trace] [  JLink] - - 1.005ms returns 0  
[2025-Nov-11 21:17:31] [trace] [  JLink] - JLINK_HasError()  
[2025-Nov-11 21:17:31] [trace] [  JLink] - JLINK_CORESIGHT_WriteAPDPReg(AP reg 0x01, 0x00000001)  
[2025-Nov-11 21:17:31] [trace] [  JLink] - - 0.998ms returns 0  
[2025-Nov-11 21:17:31] [trace] [  JLink] - JLINK_HasError()  
[2025-Nov-11 21:17:32] [debug] [SeggerBackend] - read_access_port_register
[2025-Nov-11 21:17:32] [debug] [SeggerBackend] - ---just_read_access_port_register
[2025-Nov-11 21:17:32] [debug] [SeggerBackend] - ---just_select_access_port_register
[2025-Nov-11 21:17:32] [trace] [  JLink] - JLINK_CORESIGHT_ReadAPDPReg(AP reg 0x02)  
[2025-Nov-11 21:17:32] [trace] [  JLink] - Value=0x00000000
[2025-Nov-11 21:17:32] [trace] [  JLink] - - 4.180ms returns 0  
[2025-Nov-11 21:17:32] [trace] [  JLink] - JLINK_HasError()  
[2025-Nov-11 21:17:32] [debug] [  nRF52] - Just_debug_reset
[2025-Nov-11 21:17:32] [debug] [  nRF52] - Just_is_ctrl_ap_available
[2025-Nov-11 21:17:32] [debug] [SeggerBackend] - read_access_port_register
[2025-Nov-11 21:17:32] [debug] [SeggerBackend] - ---just_read_access_port_register
[2025-Nov-11 21:17:32] [debug] [SeggerBackend] - ---just_select_access_port_register
[2025-Nov-11 21:17:32] [debug] [SeggerBackend] - Select AP 1, DP Bank 0, AP Bank 15
[2025-Nov-11 21:17:32] [trace] [  JLink] - JLINK_CORESIGHT_WriteAPDPReg(DP reg 0x02, 0x010000F0)  
[2025-Nov-11 21:17:32] [trace] [  JLink] - - 0.833ms returns 0  
[2025-Nov-11 21:17:32] [trace] [  JLink] - JLINK_HasError()  
[2025-Nov-11 21:17:32] [trace] [  JLink] - JLINK_CORESIGHT_ReadAPDPReg(AP reg 0x03)  
[2025-Nov-11 21:17:32] [trace] [  JLink] - Value=0x00000000
[2025-Nov-11 21:17:32] [trace] [  JLink] - - 1.451ms returns 0  
[2025-Nov-11 21:17:32] [trace] [  JLink] - JLINK_HasError()  
[2025-Nov-11 21:17:32] [debug] [SeggerBackend] - read_access_port_register
[2025-Nov-11 21:17:32] [debug] [SeggerBackend] - ---just_read_access_port_register
[2025-Nov-11 21:17:32] [debug] [SeggerBackend] - ---just_select_access_port_register
[2025-Nov-11 21:17:32] [trace] [  JLink] - JLINK_CORESIGHT_ReadAPDPReg(AP reg 0x03)  
[2025-Nov-11 21:17:32] [trace] [  JLink] - Value=0x00000000
[2025-Nov-11 21:17:32] [trace] [  JLink] - - 1.542ms returns 0  
[2025-Nov-11 21:17:32] [trace] [  JLink] - JLINK_HasError()  
[2025-Nov-11 21:17:32] [debug] [SeggerBackend] - read_access_port_register
[2025-Nov-11 21:17:32] [debug] [SeggerBackend] - ---just_read_access_port_register
[2025-Nov-11 21:17:32] [debug] [SeggerBackend] - ---just_select_access_port_register
[2025-Nov-11 21:17:32] [trace] [  JLink] - JLINK_CORESIGHT_ReadAPDPReg(AP reg 0x03)  
[2025-Nov-11 21:17:32] [trace] [  JLink] - Value=0x00000000
[2025-Nov-11 21:17:32] [trace] [  JLink] - - 1.317ms returns 0  
[2025-Nov-11 21:17:32] [trace] [  JLink] - JLINK_HasError()  
[2025-Nov-11 21:17:32] [debug] [SeggerBackend] - read_access_port_register
[2025-Nov-11 21:17:32] [debug] [SeggerBackend] - ---just_read_access_port_register
[2025-Nov-11 21:17:32] [debug] [SeggerBackend] - ---just_select_access_port_register
[2025-Nov-11 21:17:32] [trace] [  JLink] - JLINK_CORESIGHT_ReadAPDPReg(AP reg 0x03)  
[2025-Nov-11 21:17:32] [trace] [  JLink] - Value=0x00000000
[2025-Nov-11 21:17:32] [trace] [  JLink] - - 1.315ms returns 0  
[2025-Nov-11 21:17:32] [trace] [  JLink] - JLINK_HasError()  
[2025-Nov-11 21:17:32] [warning] [  nRF52] - Encountered error while recovering, retrying. -4: nRF52832 engineering A does not support debug reset.
[2025-Nov-11 21:17:32] [debug] [  nRF52] - Just_read_device_version
[2025-Nov-11 21:17:32] [debug] [  nRF52] - Just_readback_status
[2025-Nov-11 21:17:32] [debug] [  nRF52] - Just_is_ctrl_ap_available
[2025-Nov-11 21:17:32] [debug] [SeggerBackend] - read_access_port_register
[2025-Nov-11 21:17:32] [debug] [SeggerBackend] - ---just_read_access_port_register
[2025-Nov-11 21:17:32] [debug] [SeggerBackend] - ---just_select_access_port_register
[2025-Nov-11 21:17:32] [trace] [  JLink] - JLINK_CORESIGHT_ReadAPDPReg(AP reg 0x03)  
[2025-Nov-11 21:17:32] [trace] [  JLink] - Value=0x00000000
[2025-Nov-11 21:17:32] [trace] [  JLink] - - 1.502ms returns 0  
[2025-Nov-11 21:17:32] [trace] [  JLink] - JLINK_HasError()  
[2025-Nov-11 21:17:32] [debug] [SeggerBackend] - read_access_port_register
[2025-Nov-11 21:17:32] [debug] [SeggerBackend] - ---just_read_access_port_register
[2025-Nov-11 21:17:32] [debug] [SeggerBackend] - ---just_select_access_port_register
[2025-Nov-11 21:17:32] [trace] [  JLink] - JLINK_CORESIGHT_ReadAPDPReg(AP reg 0x03)  
[2025-Nov-11 21:17:32] [trace] [  JLink] - Value=0x00000000
[2025-Nov-11 21:17:32] [trace] [  JLink] - - 1.987ms returns 0  
[2025-Nov-11 21:17:32] [trace] [  JLink] - JLINK_HasError()  
[2025-Nov-11 21:17:32] [debug] [SeggerBackend] - read_access_port_register
[2025-Nov-11 21:17:32] [debug] [SeggerBackend] - ---just_read_access_port_register
[2025-Nov-11 21:17:32] [debug] [SeggerBackend] - ---just_select_access_port_register
[2025-Nov-11 21:17:32] [trace] [  JLink] - JLINK_CORESIGHT_ReadAPDPReg(AP reg 0x03)  
[2025-Nov-11 21:17:32] [trace] [  JLink] - Value=0x00000000
[2025-Nov-11 21:17:32] [trace] [  JLink] - - 1.315ms returns 0  
[2025-Nov-11 21:17:32] [trace] [  JLink] - JLINK_HasError()  
[2025-Nov-11 21:17:32] [debug] [SeggerBackend] - read_access_port_register
[2025-Nov-11 21:17:32] [debug] [SeggerBackend] - ---just_read_access_port_register
[2025-Nov-11 21:17:32] [debug] [SeggerBackend] - ---just_select_access_port_register
[2025-Nov-11 21:17:32] [trace] [  JLink] - JLINK_CORESIGHT_ReadAPDPReg(AP reg 0x03)  
[2025-Nov-11 21:17:32] [trace] [  JLink] - Value=0x00000000
[2025-Nov-11 21:17:32] [trace] [  JLink] - - 1.556ms returns 0  
[2025-Nov-11 21:17:32] [trace] [  JLink] - JLINK_HasError()  
[2025-Nov-11 21:17:32] [debug] [SeggerBackend] - read_u32
[2025-Nov-11 21:17:32] [debug] [SeggerBackend] - ---just_connect_to_device
[2025-Nov-11 21:17:32] [debug] [SeggerBackend] - is_connected_to_device
[2025-Nov-11 21:17:32] [trace] [  JLink] - JLINK_IsConnected()  
[2025-Nov-11 21:17:32] [trace] [  JLink] - - 0.008ms returns FALSE  
[2025-Nov-11 21:17:32] [trace] [  JLink] - JLINK_HasError()  
[2025-Nov-11 21:17:32] [debug] [SeggerBackend] - ---set_coresight_ahb_ap_index
[2025-Nov-11 21:17:32] [trace] [  JLink] - JLINK_ExecCommand("CORESIGHT_SetIndexAHBAPToUse = 0", ...).   
[2025-Nov-11 21:17:32] [trace] [  JLink] - - 0.016ms returns 0x00  
[2025-Nov-11 21:17:32] [trace] [  JLink] - JLINK_HasError()  
[2025-Nov-11 21:17:32] [trace] [  JLink] - JLINK_ExecCommand("device = nRF52", ...).   
[2025-Nov-11 21:17:32] [trace] [  JLink] - Flash bank @ 0x00000000: SFL: Parsing sectorization info from ELF file
[2025-Nov-11 21:17:32] [trace] [  JLink] -   FlashDevice.SectorInfo[0]: .SectorSize = 0x00000400, .SectorStartAddr = 0x00000000
[2025-Nov-11 21:17:32] [trace] [  JLink] - FlashBank @0x00000000: Sectorization info from SFL ELF file ignored because sectorization override from DLL / XML file is active.
[2025-Nov-11 21:17:32] [trace] [  JLink] - Device "NRF52" selected.
[2025-Nov-11 21:17:32] [trace] [  JLink] - Device "NRF52" selected.
[2025-Nov-11 21:17:32] [trace] [  JLink] - - 2.744ms returns 0x00  
[2025-Nov-11 21:17:32] [trace] [  JLink] - JLINK_HasError()  
[2025-Nov-11 21:17:32] [trace] [  JLink] - JLINK_Connect()  
[2025-Nov-11 21:17:32] [trace] [  JLink] - InitTarget() start
[2025-Nov-11 21:17:32] [trace] [  JLink] - InitTarget() start
[2025-Nov-11 21:17:32] [trace] [  JLink] -  J-Link Script File: Executing InitTarget() 
[2025-Nov-11 21:17:32] [trace] [  JLink] - InitTarget() end - Took 12.5ms
[2025-Nov-11 21:17:32] [trace] [  JLink] - InitTarget() end - Took 12.5ms
[2025-Nov-11 21:17:32] [trace] [  JLink] - Found SW-DP with ID 0x2BA01477
[2025-Nov-11 21:17:32] [trace] [  JLink] - Found SW-DP with ID 0x2BA01477
[2025-Nov-11 21:17:32] [trace] [  JLink] - DPIDR: 0x2BA01477
[2025-Nov-11 21:17:32] [trace] [  JLink] - DPIDR: 0x2BA01477
[2025-Nov-11 21:17:32] [trace] [  JLink] - CoreSight SoC-400 or earlier
[2025-Nov-11 21:17:32] [trace] [  JLink] - CoreSight SoC-400 or earlier
[2025-Nov-11 21:17:32] [trace] [  JLink] - AP map detection skipped. Manually configured AP map found.
[2025-Nov-11 21:17:32] [trace] [  JLink] - AP map detection skipped. Manually configured AP map found.
[2025-Nov-11 21:17:32] [trace] [  JLink] - AP[0]: AHB-AP (IDR: Not set, ADDR: 0x00000000)
[2025-Nov-11 21:17:32] [trace] [  JLink] - AP[0]: AHB-AP (IDR: Not set, ADDR: 0x00000000)
[2025-Nov-11 21:17:32] [trace] [  JLink] - AP[0]: Core found
[2025-Nov-11 21:17:32] [trace] [  JLink] - AP[0]: Core found
[2025-Nov-11 21:17:32] [trace] [  JLink] - AP[0]: AHB-AP ROM base: 0xE00FF000
[2025-Nov-11 21:17:32] [trace] [  JLink] - AP[0]: AHB-AP ROM base: 0xE00FF000
[2025-Nov-11 21:17:32] [trace] [  JLink] - CPUID register: 0x410FC241. Implementer code: 0x41 (ARM)
[2025-Nov-11 21:17:32] [trace] [  JLink] - CPUID register: 0x410FC241. Implementer code: 0x41 (ARM)
[2025-Nov-11 21:17:32] [trace] [  JLink] - Found Cortex-M4 r0p1, Little endian.
[2025-Nov-11 21:17:32] [trace] [  JLink] - Found Cortex-M4 r0p1, Little endian.
[2025-Nov-11 21:17:32] [trace] [  JLink] - -- Max. mem block: 0x00002B48
[2025-Nov-11 21:17:32] [trace] [  JLink] - CPU_ReadMem(4 bytes @ 0xE000EDF0)
[2025-Nov-11 21:17:32] [trace] [  JLink] - CPU_WriteMem(4 bytes @ 0xE000EDF0)
[2025-Nov-11 21:17:32] [trace] [  JLink] - CPU_ReadMem(4 bytes @ 0xE0002000)
[2025-Nov-11 21:17:32] [trace] [  JLink] - FPUnit: 6 code (BP) slots and 2 literal slots
[2025-Nov-11 21:17:32] [trace] [  JLink] - FPUnit: 6 code (BP) slots and 2 literal slots
[2025-Nov-11 21:17:32] [trace] [  JLink] - CPU_ReadMem(4 bytes @ 0xE000EDFC)
[2025-Nov-11 21:17:32] [trace] [  JLink] - CPU_WriteMem(4 bytes @ 0xE000EDFC)
[2025-Nov-11 21:17:32] [trace] [  JLink] - CPU_ReadMem(4 bytes @ 0xE0001000)
[2025-Nov-11 21:17:32] [trace] [  JLink] - CPU_WriteMem(4 bytes @ 0xE0001000)
[2025-Nov-11 21:17:32] [trace] [  JLink] - CPU_ReadMem(4 bytes @ 0xE000ED88)
[2025-Nov-11 21:17:32] [trace] [  JLink] - CPU_WriteMem(4 bytes @ 0xE000ED88)
[2025-Nov-11 21:17:32] [trace] [  JLink] - CPU_ReadMem(4 bytes @ 0xE000ED88)
[2025-Nov-11 21:17:32] [trace] [  JLink] - CPU_WriteMem(4 bytes @ 0xE000ED88)
[2025-Nov-11 21:17:32] [trace] [  JLink] - CoreSight components:
[2025-Nov-11 21:17:32] [trace] [  JLink] - CoreSight components:
[2025-Nov-11 21:17:32] [trace] [  JLink] - ROMTbl[0] @ E00FF000
[2025-Nov-11 21:17:32] [trace] [  JLink] - ROMTbl[0] @ E00FF000
[2025-Nov-11 21:17:32] [trace] [  JLink] - CPU_ReadMem(64 bytes @ 0xE00FF000)
[2025-Nov-11 21:17:32] [trace] [  JLink] - CPU_ReadMem(32 bytes @ 0xE000EFE0)
[2025-Nov-11 21:17:32] [trace] [  JLink] - [0][0]: E000E000 CID B105E00D PID 000BB000 SCS
[2025-Nov-11 21:17:32] [trace] [  JLink] - [0][0]: E000E000 CID B105E00D PID 000BB000 SCS
[2025-Nov-11 21:17:32] [trace] [  JLink] - CPU_ReadMem(32 bytes @ 0xE0001FE0)
[2025-Nov-11 21:17:32] [trace] [  JLink] - [0][1]: E0001000 CID B105E00D PID 003BB002 DWT
[2025-Nov-11 21:17:32] [trace] [  JLink] - [0][1]: E0001000 CID B105E00D PID 003BB002 DWT
[2025-Nov-11 21:17:32] [trace] [  JLink] - CPU_ReadMem(32 bytes @ 0xE0002FE0)
[2025-Nov-11 21:17:32] [trace] [  JLink] - [0][2]: E0002000 CID B105E00D PID 002BB003 FPB
[2025-Nov-11 21:17:32] [trace] [  JLink] - [0][2]: E0002000 CID B105E00D PID 002BB003 FPB
[2025-Nov-11 21:17:32] [trace] [  JLink] - - 106.269ms returns 0x00  
[2025-Nov-11 21:17:32] [trace] [  JLink] - JLINK_HasError()  
[2025-Nov-11 21:17:32] [trace] [  JLink] - JLINK_CORE_GetFound()  
[2025-Nov-11 21:17:32] [trace] [  JLink] - - 0.010ms returns 0xE0000FF  
[2025-Nov-11 21:17:32] [debug] [SeggerBackend] - ---just_read_u32
[2025-Nov-11 21:17:32] [debug] [SeggerBackend] - ---just_invalidate_cache
[2025-Nov-11 21:17:32] [trace] [  JLink] - JLINK_ExecCommand("InvalidateCache", ...).   
[2025-Nov-11 21:17:32] [trace] [  JLink] - - 0.016ms returns 0x00  
[2025-Nov-11 21:17:32] [trace] [  JLink] - JLINK_HasError()  
[2025-Nov-11 21:17:32] [trace] [  JLink] - JLINK_ReadMemU32(0x10000130, 0x1 Items)  
[2025-Nov-11 21:17:32] [trace] [  JLink] - CPU_ReadMem(4 bytes @ 0x10000130)
[2025-Nov-11 21:17:32] [trace] [  JLink] - Data:  0E 00 00 00
[2025-Nov-11 21:17:32] [trace] [  JLink] - - 3.462ms returns 1 (0x1)  
[2025-Nov-11 21:17:32] [trace] [  JLink] - JLINK_HasError()  
[2025-Nov-11 21:17:32] [debug] [SeggerBackend] - read_u32
[2025-Nov-11 21:17:32] [debug] [SeggerBackend] - ---just_connect_to_device
[2025-Nov-11 21:17:32] [debug] [SeggerBackend] - is_connected_to_device
[2025-Nov-11 21:17:32] [debug] [SeggerBackend] - ---just_read_u32
[2025-Nov-11 21:17:32] [debug] [SeggerBackend] - ---just_invalidate_cache
[2025-Nov-11 21:17:32] [trace] [  JLink] - JLINK_ExecCommand("InvalidateCache", ...).   
[2025-Nov-11 21:17:32] [trace] [  JLink] - - 0.013ms returns 0x00  
[2025-Nov-11 21:17:32] [trace] [  JLink] - JLINK_HasError()  
[2025-Nov-11 21:17:32] [trace] [  JLink] - JLINK_ReadMemU32(0x10000134, 0x1 Items)  
[2025-Nov-11 21:17:32] [trace] [  JLink] - CPU_ReadMem(4 bytes @ 0x10000134)
[2025-Nov-11 21:17:32] [trace] [  JLink] - Data:  00 00 00 00
[2025-Nov-11 21:17:32] [trace] [  JLink] - - 3.328ms returns 1 (0x1)  
[2025-Nov-11 21:17:32] [trace] [  JLink] - JLINK_HasError()  
[2025-Nov-11 21:17:32] [debug] [  nRF52] - Just_decode_device_version
[2025-Nov-11 21:17:32] [debug] [  nRF52] - Device identified as NRF52811_xxAA_REV1
[2025-Nov-11 21:17:32] [debug] [  nRF52] - write_approtect
[2025-Nov-11 21:17:32] [debug] [  nRF52] - NRF52811 REV1 does not implement updated APPROTECT mechanism.
[2025-Nov-11 21:17:32] [debug] [SeggerBackend] - halt
[2025-Nov-11 21:17:32] [debug] [SeggerBackend] - ---just_connect_to_device
[2025-Nov-11 21:17:32] [debug] [SeggerBackend] - is_connected_to_device
[2025-Nov-11 21:17:32] [debug] [SeggerBackend] - ---just_halt
[2025-Nov-11 21:17:32] [trace] [  JLink] - JLINK_Halt()  
[2025-Nov-11 21:17:32] [trace] [  JLink] - - 53.892ms returns 0x00  
[2025-Nov-11 21:17:32] [trace] [  JLink] - JLINK_HasError()  
[2025-Nov-11 21:17:32] [debug] [SeggerBackend] - sys_reset
[2025-Nov-11 21:17:32] [debug] [SeggerBackend] - ---just_connect_to_device
[2025-Nov-11 21:17:32] [debug] [SeggerBackend] - is_connected_to_device
[2025-Nov-11 21:17:32] [debug] [SeggerBackend] - ---just_halt
[2025-Nov-11 21:17:32] [trace] [  JLink] - JLINK_Halt()  
[2025-Nov-11 21:17:32] [trace] [  JLink] - - 3.983ms returns 0x00  
[2025-Nov-11 21:17:32] [trace] [  JLink] - JLINK_HasError()  
[2025-Nov-11 21:17:32] [debug] [SeggerBackend] - ---just_sys_reset
[2025-Nov-11 21:17:32] [trace] [  JLink] - JLINK_SetResetType(JLINKARM_CM3_RESET_TYPE_NORMAL)  
[2025-Nov-11 21:17:32] [trace] [  JLink] - - 0.013ms returns JLINKARM_CM3_RESET_TYPE_NORMAL  
[2025-Nov-11 21:17:32] [trace] [  JLink] - JLINK_HasError()  
[2025-Nov-11 21:17:32] [trace] [  JLink] - JLINK_Reset()  
[2025-Nov-11 21:17:32] [trace] [  JLink] - JLINK_GetResetTypeDesc  
[2025-Nov-11 21:17:32] [trace] [  JLink] - - 0.009ms   
[2025-Nov-11 21:17:32] [trace] [  JLink] - Reset type: NORMAL (https://kb.segger.com/J-Link_Reset_Strategies) 
[2025-Nov-11 21:17:32] [trace] [  JLink] - Reset type: NORMAL (https://kb.segger.com/J-Link_Reset_Strategies) 
[2025-Nov-11 21:17:32] [trace] [  JLink] - CPU_WriteMem(4 bytes @ 0xE000EDF0)
[2025-Nov-11 21:17:32] [trace] [  JLink] - CPU_WriteMem(4 bytes @ 0xE000EDFC)
[2025-Nov-11 21:17:32] [trace] [  JLink] - Reset: Halt core after reset via DEMCR.VC_CORERESET.
[2025-Nov-11 21:17:32] [trace] [  JLink] - Reset: Halt core after reset via DEMCR.VC_CORERESET.
[2025-Nov-11 21:17:32] [trace] [  JLink] - Reset: Reset device via AIRCR.SYSRESETREQ.
[2025-Nov-11 21:17:32] [trace] [  JLink] - Reset: Reset device via AIRCR.SYSRESETREQ.
[2025-Nov-11 21:17:32] [trace] [  JLink] - CPU_WriteMem(4 bytes @ 0xE000ED0C)
[2025-Nov-11 21:17:32] [trace] [  JLink] - CPU_ReadMem(4 bytes @ 0xE000EDF0)
[2025-Nov-11 21:17:32] [trace] [  JLink] - Reset: SYSRESETREQ has confused core.
[2025-Nov-11 21:17:32] [trace] [  JLink] - Reset: SYSRESETREQ has confused core.
[2025-Nov-11 21:17:32] [trace] [  JLink] - Found SW-DP with ID 0x2BA01477
[2025-Nov-11 21:17:32] [trace] [  JLink] - Found SW-DP with ID 0x2BA01477
[2025-Nov-11 21:17:32] [trace] [  JLink] - DPIDR: 0x2BA01477
[2025-Nov-11 21:17:32] [trace] [  JLink] - DPIDR: 0x2BA01477
[2025-Nov-11 21:17:32] [trace] [  JLink] - CoreSight SoC-400 or earlier
[2025-Nov-11 21:17:32] [trace] [  JLink] - CoreSight SoC-400 or earlier
[2025-Nov-11 21:17:32] [trace] [  JLink] - AP map detection skipped. Manually configured AP map found.
[2025-Nov-11 21:17:32] [trace] [  JLink] - AP map detection skipped. Manually configured AP map found.
[2025-Nov-11 21:17:32] [trace] [  JLink] - AP[0]: AHB-AP (IDR: Not set, ADDR: 0x00000000)
[2025-Nov-11 21:17:32] [trace] [  JLink] - AP[0]: AHB-AP (IDR: Not set, ADDR: 0x00000000)
[2025-Nov-11 21:17:32] [trace] [  JLink] - AP[0]: Core found
[2025-Nov-11 21:17:32] [trace] [  JLink] - AP[0]: Core found
[2025-Nov-11 21:17:32] [trace] [  JLink] - AP[0]: AHB-AP ROM base: 0xE00FF000
[2025-Nov-11 21:17:32] [trace] [  JLink] - AP[0]: AHB-AP ROM base: 0xE00FF000
[2025-Nov-11 21:17:32] [trace] [  JLink] - CPUID register: 0x410FC241. Implementer code: 0x41 (ARM)
[2025-Nov-11 21:17:32] [trace] [  JLink] - CPUID register: 0x410FC241. Implementer code: 0x41 (ARM)
[2025-Nov-11 21:17:32] [trace] [  JLink] - Found Cortex-M4 r0p1, Little endian.
[2025-Nov-11 21:17:32] [trace] [  JLink] - Found Cortex-M4 r0p1, Little endian.
[2025-Nov-11 21:17:32] [trace] [  JLink] - Reset: Using fallback: VECTRESET.
[2025-Nov-11 21:17:32] [trace] [  JLink] - Reset: Using fallback: VECTRESET.
[2025-Nov-11 21:17:32] [trace] [  JLink] - CPU_WriteMem(4 bytes @ 0xE000EDF0)
[2025-Nov-11 21:17:32] [trace] [  JLink] - CPU_WriteMem(4 bytes @ 0xE000EDFC)
[2025-Nov-11 21:17:32] [trace] [  JLink] - Reset: Halt core after reset via DEMCR.VC_CORERESET.
[2025-Nov-11 21:17:32] [trace] [  JLink] - Reset: Halt core after reset via DEMCR.VC_CORERESET.
[2025-Nov-11 21:17:32] [trace] [  JLink] - Reset: Reset device via AIRCR.VECTRESET.
[2025-Nov-11 21:17:32] [trace] [  JLink] - Reset: Reset device via AIRCR.VECTRESET.
[2025-Nov-11 21:17:32] [trace] [  JLink] - CPU_WriteMem(4 bytes @ 0xE000ED0C)
[2025-Nov-11 21:17:32] [trace] [  JLink] - CPU_ReadMem(4 bytes @ 0xE000EDF0)
[2025-Nov-11 21:17:32] [trace] [  JLink] - CPU_ReadMem(4 bytes @ 0xE000EDF0)
[2025-Nov-11 21:17:32] [trace] [  JLink] - CPU_WriteMem(4 bytes @ 0xE000EDF0)
[2025-Nov-11 21:17:32] [trace] [  JLink] - CPU_WriteMem(4 bytes @ 0xE000EDFC)
[2025-Nov-11 21:17:32] [trace] [  JLink] - CPU_ReadMem(4 bytes @ 0xE000EDF0)
[2025-Nov-11 21:17:32] [trace] [  JLink] - CPU_WriteMem(4 bytes @ 0xE0002000)
[2025-Nov-11 21:17:32] [trace] [  JLink] - CPU_ReadMem(4 bytes @ 0xE000EDFC)
[2025-Nov-11 21:17:32] [trace] [  JLink] - CPU_ReadMem(4 bytes @ 0xE0001000)
[2025-Nov-11 21:17:32] [trace] [  JLink] - CPU_WriteMem(4 bytes @ 0xE0001000)
[2025-Nov-11 21:17:32] [trace] [  JLink] - - 196.456ms   
[2025-Nov-11 21:17:32] [trace] [  JLink] - JLINK_HasError()  
[2025-Nov-11 21:17:32] [debug] [  nRF52] - Just_power_ram_all
[2025-Nov-11 21:17:32] [debug] [  nRF52] - Just_readback_status
[2025-Nov-11 21:17:32] [debug] [  nRF52] - Just_is_ctrl_ap_available
[2025-Nov-11 21:17:32] [debug] [SeggerBackend] - read_access_port_register
[2025-Nov-11 21:17:32] [debug] [SeggerBackend] - ---just_read_access_port_register
[2025-Nov-11 21:17:32] [debug] [SeggerBackend] - ---just_select_access_port_register
[2025-Nov-11 21:17:32] [debug] [SeggerBackend] - Select AP 1, DP Bank 255, AP Bank 15
[2025-Nov-11 21:17:32] [trace] [  JLink] - JLINK_CORESIGHT_WriteAPDPReg(DP reg 0x02, 0x010000F0)  
[2025-Nov-11 21:17:32] [trace] [  JLink] - - 0.921ms returns 0  
[2025-Nov-11 21:17:32] [trace] [  JLink] - JLINK_HasError()  
[2025-Nov-11 21:17:32] [trace] [  JLink] - JLINK_CORESIGHT_ReadAPDPReg(AP reg 0x03)  
[2025-Nov-11 21:17:32] [trace] [  JLink] - Value=0x02880000
[2025-Nov-11 21:17:32] [trace] [  JLink] - - 1.290ms returns 0  
[2025-Nov-11 21:17:32] [trace] [  JLink] - JLINK_HasError()  
[2025-Nov-11 21:17:32] [debug] [SeggerBackend] - read_access_port_register
[2025-Nov-11 21:17:32] [debug] [SeggerBackend] - ---just_read_access_port_register
[2025-Nov-11 21:17:32] [debug] [SeggerBackend] - ---just_select_access_port_register
[2025-Nov-11 21:17:32] [trace] [  JLink] - JLINK_CORESIGHT_ReadAPDPReg(AP reg 0x03)  
[2025-Nov-11 21:17:32] [trace] [  JLink] - Value=0x02880000
[2025-Nov-11 21:17:32] [trace] [  JLink] - - 1.272ms returns 0  
[2025-Nov-11 21:17:32] [trace] [  JLink] - JLINK_HasError()  
[2025-Nov-11 21:17:32] [debug] [SeggerBackend] - read_access_port_register
[2025-Nov-11 21:17:32] [debug] [SeggerBackend] - ---just_read_access_port_register
[2025-Nov-11 21:17:32] [debug] [SeggerBackend] - ---just_select_access_port_register
[2025-Nov-11 21:17:32] [trace] [  JLink] - JLINK_CORESIGHT_ReadAPDPReg(AP reg 0x03)  
[2025-Nov-11 21:17:32] [trace] [  JLink] - Value=0x02880000
[2025-Nov-11 21:17:32] [trace] [  JLink] - - 1.421ms returns 0  
[2025-Nov-11 21:17:32] [trace] [  JLink] - JLINK_HasError()  
[2025-Nov-11 21:17:32] [debug] [SeggerBackend] - read_access_port_register
[2025-Nov-11 21:17:32] [debug] [SeggerBackend] - ---just_read_access_port_register
[2025-Nov-11 21:17:32] [debug] [SeggerBackend] - ---just_select_access_port_register
[2025-Nov-11 21:17:32] [trace] [  JLink] - JLINK_CORESIGHT_ReadAPDPReg(AP reg 0x03)  
[2025-Nov-11 21:17:32] [trace] [  JLink] - Value=0x02880000
[2025-Nov-11 21:17:32] [trace] [  JLink] - - 1.414ms returns 0  
[2025-Nov-11 21:17:32] [trace] [  JLink] - JLINK_HasError()  
[2025-Nov-11 21:17:32] [debug] [SeggerBackend] - read_access_port_register
[2025-Nov-11 21:17:32] [debug] [SeggerBackend] - ---just_read_access_port_register
[2025-Nov-11 21:17:32] [debug] [SeggerBackend] - ---just_select_access_port_register
[2025-Nov-11 21:17:32] [debug] [SeggerBackend] - Select AP 1, DP Bank 0, AP Bank 0
[2025-Nov-11 21:17:32] [trace] [  JLink] - JLINK_CORESIGHT_WriteAPDPReg(DP reg 0x02, 0x01000000)  
[2025-Nov-11 21:17:32] [trace] [  JLink] - - 0.763ms returns 0  
[2025-Nov-11 21:17:32] [trace] [  JLink] - JLINK_HasError()  
[2025-Nov-11 21:17:32] [trace] [  JLink] - JLINK_CORESIGHT_ReadAPDPReg(AP reg 0x03)  
[2025-Nov-11 21:17:32] [trace] [  JLink] - Value=0x00000001
[2025-Nov-11 21:17:32] [trace] [  JLink] - - 1.454ms returns 0  
[2025-Nov-11 21:17:32] [trace] [  JLink] - JLINK_HasError()  
[2025-Nov-11 21:17:32] [debug] [SeggerBackend] - read_access_port_register
[2025-Nov-11 21:17:32] [debug] [SeggerBackend] - ---just_read_access_port_register
[2025-Nov-11 21:17:32] [debug] [SeggerBackend] - ---just_select_access_port_register
[2025-Nov-11 21:17:32] [trace] [  JLink] - JLINK_CORESIGHT_ReadAPDPReg(AP reg 0x03)  
[2025-Nov-11 21:17:32] [trace] [  JLink] - Value=0x00000001
[2025-Nov-11 21:17:32] [trace] [  JLink] - - 1.315ms returns 0  
[2025-Nov-11 21:17:32] [trace] [  JLink] - JLINK_HasError()  
[2025-Nov-11 21:17:32] [debug] [SeggerBackend] - read_access_port_register
[2025-Nov-11 21:17:32] [debug] [SeggerBackend] - ---just_read_access_port_register
[2025-Nov-11 21:17:32] [debug] [SeggerBackend] - ---just_select_access_port_register
[2025-Nov-11 21:17:32] [trace] [  JLink] - JLINK_CORESIGHT_ReadAPDPReg(AP reg 0x03)  
[2025-Nov-11 21:17:32] [trace] [  JLink] - Value=0x00000001
[2025-Nov-11 21:17:32] [trace] [  JLink] - - 1.297ms returns 0  
[2025-Nov-11 21:17:32] [trace] [  JLink] - JLINK_HasError()  
[2025-Nov-11 21:17:32] [debug] [SeggerBackend] - read_access_port_register
[2025-Nov-11 21:17:32] [debug] [SeggerBackend] - ---just_read_access_port_register
[2025-Nov-11 21:17:32] [debug] [SeggerBackend] - ---just_select_access_port_register
[2025-Nov-11 21:17:32] [trace] [  JLink] - JLINK_CORESIGHT_ReadAPDPReg(AP reg 0x03)  
[2025-Nov-11 21:17:32] [trace] [  JLink] - Value=0x00000001
[2025-Nov-11 21:17:32] [trace] [  JLink] - - 1.425ms returns 0  
[2025-Nov-11 21:17:32] [trace] [  JLink] - JLINK_HasError()  
[2025-Nov-11 21:17:32] [ info] [  nRF52] - Protection status read as NONE
[2025-Nov-11 21:17:32] [debug] [SeggerBackend] - write_u32
[2025-Nov-11 21:17:32] [debug] [SeggerBackend] - ---just_connect_to_device
[2025-Nov-11 21:17:32] [debug] [SeggerBackend] - is_connected_to_device
[2025-Nov-11 21:17:32] [debug] [SeggerBackend] - ---just_write_u32
[2025-Nov-11 21:17:32] [debug] [SeggerBackend] - ---just_write_debug_port_register
[2025-Nov-11 21:17:32] [debug] [SeggerBackend] - ---just_select_debug_port_register
[2025-Nov-11 21:17:32] [debug] [SeggerBackend] - Select AP 255, DP Bank 0, AP Bank 255
[2025-Nov-11 21:17:32] [trace] [  JLink] - JLINK_CORESIGHT_WriteAPDPReg(DP reg 0x02, 0x00000000)  
[2025-Nov-11 21:17:32] [trace] [  JLink] - - 0.943ms returns 0  
[2025-Nov-11 21:17:32] [trace] [  JLink] - JLINK_HasError()  
[2025-Nov-11 21:17:32] [trace] [  JLink] - JLINK_CORESIGHT_WriteAPDPReg(DP reg 0x02, 0x00000000)  
[2025-Nov-11 21:17:32] [trace] [  JLink] - - 0.942ms returns 0  
[2025-Nov-11 21:17:32] [trace] [  JLink] - JLINK_HasError()  
[2025-Nov-11 21:17:32] [trace] [  JLink] - JLINK_WriteU32(0x40000904, 0x0000FFFF)  
[2025-Nov-11 21:17:32] [trace] [  JLink] - CPU_WriteMem(4 bytes @ 0x40000904)
[2025-Nov-11 21:17:32] [trace] [  JLink] - - 5.565ms returns 0 (0x00000000)  
[2025-Nov-11 21:17:32] [trace] [  JLink] - JLINK_HasError()  
[2025-Nov-11 21:17:32] [debug] [SeggerBackend] - write_u32
[2025-Nov-11 21:17:32] [debug] [SeggerBackend] - ---just_connect_to_device
[2025-Nov-11 21:17:32] [debug] [SeggerBackend] - is_connected_to_device
[2025-Nov-11 21:17:32] [debug] [SeggerBackend] - ---just_write_u32
[2025-Nov-11 21:17:32] [debug] [SeggerBackend] - ---just_write_debug_port_register
[2025-Nov-11 21:17:32] [debug] [SeggerBackend] - ---just_select_debug_port_register
[2025-Nov-11 21:17:32] [debug] [SeggerBackend] - Select AP 255, DP Bank 0, AP Bank 255
[2025-Nov-11 21:17:32] [trace] [  JLink] - JLINK_CORESIGHT_WriteAPDPReg(DP reg 0x02, 0x00000000)  
[2025-Nov-11 21:17:32] [trace] [  JLink] - - 0.783ms returns 0  
[2025-Nov-11 21:17:32] [trace] [  JLink] - JLINK_HasError()  
[2025-Nov-11 21:17:32] [trace] [  JLink] - JLINK_CORESIGHT_WriteAPDPReg(DP reg 0x02, 0x00000000)  
[2025-Nov-11 21:17:32] [trace] [  JLink] - - 0.798ms returns 0  
[2025-Nov-11 21:17:32] [trace] [  JLink] - JLINK_HasError()  
[2025-Nov-11 21:17:32] [trace] [  JLink] - JLINK_WriteU32(0x40000914, 0x0000FFFF)  
[2025-Nov-11 21:17:32] [trace] [  JLink] - CPU_WriteMem(4 bytes @ 0x40000914)
[2025-Nov-11 21:17:32] [trace] [  JLink] - - 3.262ms returns 0 (0x00000000)  
[2025-Nov-11 21:17:32] [trace] [  JLink] - JLINK_HasError()  
[2025-Nov-11 21:17:32] [debug] [SeggerBackend] - write_u32
[2025-Nov-11 21:17:32] [debug] [SeggerBackend] - ---just_connect_to_device
[2025-Nov-11 21:17:32] [debug] [SeggerBackend] - is_connected_to_device
[2025-Nov-11 21:17:32] [debug] [SeggerBackend] - ---just_write_u32
[2025-Nov-11 21:17:32] [debug] [SeggerBackend] - ---just_write_debug_port_register
[2025-Nov-11 21:17:32] [debug] [SeggerBackend] - ---just_select_debug_port_register
[2025-Nov-11 21:17:32] [debug] [SeggerBackend] - Select AP 255, DP Bank 0, AP Bank 255
[2025-Nov-11 21:17:32] [trace] [  JLink] - JLINK_CORESIGHT_WriteAPDPReg(DP reg 0x02, 0x00000000)  
[2025-Nov-11 21:17:32] [trace] [  JLink] - - 0.745ms returns 0  
[2025-Nov-11 21:17:32] [trace] [  JLink] - JLINK_HasError()  
[2025-Nov-11 21:17:32] [trace] [  JLink] - JLINK_CORESIGHT_WriteAPDPReg(DP reg 0x02, 0x00000000)  
[2025-Nov-11 21:17:32] [trace] [  JLink] - - 0.790ms returns 0  
[2025-Nov-11 21:17:32] [trace] [  JLink] - JLINK_HasError()  
[2025-Nov-11 21:17:32] [trace] [  JLink] - JLINK_WriteU32(0x40000924, 0x0000FFFF)  
[2025-Nov-11 21:17:32] [trace] [  JLink] - CPU_WriteMem(4 bytes @ 0x40000924)
[2025-Nov-11 21:17:32] [trace] [  JLink] - - 3.273ms returns 0 (0x00000000)  
[2025-Nov-11 21:17:32] [trace] [  JLink] - JLINK_HasError()  
[2025-Nov-11 21:17:32] [debug] [SeggerBackend] - write_u32
[2025-Nov-11 21:17:32] [debug] [SeggerBackend] - ---just_connect_to_device
[2025-Nov-11 21:17:32] [debug] [SeggerBackend] - is_connected_to_device
[2025-Nov-11 21:17:32] [debug] [SeggerBackend] - ---just_write_u32
[2025-Nov-11 21:17:32] [debug] [SeggerBackend] - ---just_write_debug_port_register
[2025-Nov-11 21:17:32] [debug] [SeggerBackend] - ---just_select_debug_port_register
[2025-Nov-11 21:17:32] [debug] [SeggerBackend] - Select AP 255, DP Bank 0, AP Bank 255
